time	I(D3)	I(D4)	I(R2)
Step Information: R=10K  (Run: 1/10)
0.000000000000000e+000	4.417869e-006	1.606329e-002	8.910018e-006
9.827253124967542e-002	4.417869e-006	1.606329e-002	8.910018e-006
9.993268749967532e-002	4.417869e-006	1.606329e-002	8.910018e-006
1.000000000000000e-001	4.417869e-006	1.606329e-002	8.910018e-006
Step Information: R=20K  (Run: 2/10)
0.000000000000000e+000	4.417869e-006	1.606329e-002	8.821808e-006
9.817487499967542e-002	4.417869e-006	1.606329e-002	8.821808e-006
9.993268749967532e-002	4.417869e-006	1.606329e-002	8.821808e-006
1.000000000000000e-001	4.417869e-006	1.606329e-002	8.821808e-006
Step Information: R=30K  (Run: 3/10)
0.000000000000000e+000	4.417869e-006	1.606329e-002	8.735324e-006
9.817487499967542e-002	4.417869e-006	1.606329e-002	8.735324e-006
9.993268749967532e-002	4.417869e-006	1.606329e-002	8.735324e-006
1.000000000000000e-001	4.417869e-006	1.606329e-002	8.735324e-006
Step Information: R=40K  (Run: 4/10)
0.000000000000000e+000	4.417869e-006	1.606329e-002	8.650462e-006
9.765624975344167e-010	4.417851e-006	1.606329e-002	8.650462e-006
3.906249990137667e-009	4.417852e-006	1.606329e-002	8.650462e-006
9.817487499967542e-002	4.417869e-006	1.606329e-002	8.650462e-006
9.993268749967532e-002	4.417869e-006	1.606329e-002	8.650462e-006
1.000000000000000e-001	4.417869e-006	1.606329e-002	8.650462e-006
Step Information: R=50K  (Run: 5/10)
0.000000000000000e+000	4.417869e-006	1.606329e-002	8.566280e-006
9.765624975344167e-010	4.417858e-006	1.606329e-002	8.566280e-006
3.906249990137667e-009	4.417859e-006	1.606329e-002	8.566280e-006
9.817487499967542e-002	4.417869e-006	1.606329e-002	8.566280e-006
9.993268749967532e-002	4.417869e-006	1.606329e-002	8.566280e-006
1.000000000000000e-001	4.417869e-006	1.606329e-002	8.566280e-006
Step Information: R=60K  (Run: 6/10)
0.000000000000000e+000	4.417869e-006	1.606329e-002	8.477293e-006
9.765624975344167e-010	4.417862e-006	1.606329e-002	8.477293e-006
7.812499980275334e-009	4.417866e-006	1.606329e-002	8.477293e-006
9.817487499967542e-002	4.417869e-006	1.606329e-002	8.477293e-006
9.993268749967532e-002	4.417869e-006	1.606329e-002	8.477293e-006
1.000000000000000e-001	4.417869e-006	1.606329e-002	8.477293e-006
Step Information: R=70K  (Run: 7/10)
0.000000000000000e+000	4.417869e-006	1.606329e-002	8.382301e-006
1.953124995068833e-009	4.417864e-006	1.606329e-002	8.382301e-006
9.817487499967542e-002	4.417869e-006	1.606329e-002	8.382301e-006
9.993268749967532e-002	4.417869e-006	1.606329e-002	8.382301e-006
1.000000000000000e-001	4.417869e-006	1.606329e-002	8.382301e-006
Step Information: R=80K  (Run: 8/10)
0.000000000000000e+000	4.417869e-006	1.606329e-002	8.286192e-006
9.817487499967542e-002	4.417869e-006	1.606329e-002	8.286192e-006
9.993268749967532e-002	4.417869e-006	1.606329e-002	8.286192e-006
1.000000000000000e-001	4.417869e-006	1.606329e-002	8.286192e-006
Step Information: R=90K  (Run: 9/10)
0.000000000000000e+000	4.417869e-006	1.606329e-002	8.190951e-006
9.817487499967542e-002	4.417869e-006	1.606329e-002	8.190951e-006
9.993268749967532e-002	4.417869e-006	1.606329e-002	8.190951e-006
1.000000000000000e-001	4.417869e-006	1.606329e-002	8.190951e-006
Step Information: R=100K  (Run: 10/10)
0.000000000000000e+000	4.417869e-006	1.606329e-002	8.097208e-006
9.817487499967542e-002	4.417869e-006	1.606329e-002	8.097208e-006
9.993268749967532e-002	4.417869e-006	1.606329e-002	8.097208e-006
1.000000000000000e-001	4.417869e-006	1.606329e-002	8.097208e-006
